
T3E88 000:390 SEGGER J-Link V5.10h Log File (0000ms, 0315ms total)
T3E88 000:390 DLL Compiled: Jan 21 2016 19:24:29 (0000ms, 0315ms total)
T3E88 000:390 Logging started @ 2021-02-22 13:09 (0001ms, 0316ms total)
T3E88 000:391 JLINK_SetWarnOutHandler(...) (0000ms, 0316ms total)
T3E88 000:391 JLINK_OpenEx(...)
Firmware: J-Link V9 compiled Dec 13 2019 11:14:50
Hardware: V9.60
S/N: 69664847
Feature(s): RDI, GDB, FlashDL, FlashBP, JFlash  returns O.K. (0310ms, 0626ms total)
T3E88 000:701 JLINK_SetErrorOutHandler(...) (0000ms, 0626ms total)
T3E88 000:701 JLINK_ExecCommand("ProjectFile = "C:\Users\Administrator\Desktop\stm32f407±à³ÌÑ§Ï°\led_s\project\JLinkSettings.ini"", ...)  returns 0x00 (0001ms, 0627ms total)
T3E88 000:702 JLINK_ExecCommand("Device = STM32F407ZGTx", ...)Device "STM32F407ZG" selected.  returns 0x00 (0001ms, 0628ms total)
T3E88 000:703 JLINK_ExecCommand("DisableConnectionTimeout", ...)  returns 0x01 (0000ms, 0628ms total)
T3E88 000:703 JLINK_GetHardwareVersion()  returns 0x17700 (0000ms, 0628ms total)
T3E88 000:703 JLINK_GetDLLVersion()  returns 51008 (0000ms, 0628ms total)
T3E88 000:703 JLINK_GetFirmwareString(...) (0000ms, 0628ms total)
T3E88 000:705 JLINK_GetDLLVersion()  returns 51008 (0000ms, 0628ms total)
T3E88 000:705 JLINK_GetCompileDateTime() (0000ms, 0628ms total)
T3E88 000:706 JLINK_GetFirmwareString(...) (0000ms, 0628ms total)
T3E88 000:707 JLINK_GetHardwareVersion()  returns 0x17700 (0000ms, 0628ms total)
T3E88 000:708 JLINK_TIF_Select(JLINKARM_TIF_JTAG)  returns 0x00 (0001ms, 0629ms total)
T3E88 000:709 JLINK_SetSpeed(5000) (0000ms, 0629ms total)
T3E88 000:709 JLINK_GetIdData(...) >0x2F8 JTAG>TotalIRLen = 9, IRPrint = 0x0011 >0x30 JTAG> >0x210 JTAG> >0x40 JTAG> >0x40 JTAG> >0x40 JTAG> >0x30 JTAG> >0x40 JTAG> >0x40 JTAG> >0x40 JTAG> >0x40 JTAG> >0x40 JTAG> >0x40 JTAG> >0x40 JTAG> >0x40 JTAG> >0x40 JTAG> >0x40 JTAG> >0x40 JTAG> >0x40 JTAG> >0x40 JTAG> >0x40 JTAG> >0x40 JTAG> >0x40 JTAG> >0x40 JTAG> >0x2F8 JTAG>TotalIRLen = 9, IRPrint = 0x0011 >0x30 JTAG> >0x210 JTAG> >0x70 JTAG> >0x50 JTAG> >0x40 JTAG> >0x50 JTAG> >0x80 JTAG> >0x40 JTAG>
 >0x30 JTAG> >0x40 JTAG> >0x40 JTAG> >0x30 JTAG> >0x40 JTAG> >0x50 JTAG>Found Cortex-M4 r0p1, Little endian. -- CPU_ReadMem(4 bytes @ 0xE000EDF0) -- CPU_ReadMem(4 bytes @ 0xE0002000)FPUnit: 6 code (BP) slots and 2 literal slots -- CPU_ReadMem(4 bytes @ 0xE000EDFC) -- CPU_ReadMem(4 bytes @ 0xE0001000) -- CPU_WriteMem(4 bytes @ 0xE0001000) -- CPU_ReadMem(4 bytes @ 0xE000ED88) -- CPU_WriteMem(4 bytes @ 0xE000ED88) -- CPU_ReadMem(4 bytes @ 0xE000ED88) -- CPU_WriteMem(4 bytes @ 0xE000ED88)
CoreSight components:ROMTbl 0 @ E00FF000 -- CPU_ReadMem(16 bytes @ 0xE00FF000) -- CPU_ReadMem(16 bytes @ 0xE000EFF0) -- CPU_ReadMem(16 bytes @ 0xE000EFE0)ROMTbl 0 [0]: FFF0F000, CID: B105E00D, PID: 000BB00C SCS -- CPU_ReadMem(16 bytes @ 0xE0001FF0) -- CPU_ReadMem(16 bytes @ 0xE0001FE0)ROMTbl 0 [1]: FFF02000, CID: B105E00D, PID: 003BB002 DWT -- CPU_ReadMem(16 bytes @ 0xE0002FF0) -- CPU_ReadMem(16 bytes @ 0xE0002FE0)ROMTbl 0 [2]: FFF03000, CID: B105E00D, PID: 002BB003 FPB
 -- CPU_ReadMem(16 bytes @ 0xE0000FF0) -- CPU_ReadMem(16 bytes @ 0xE0000FE0)ROMTbl 0 [3]: FFF01000, CID: B105E00D, PID: 003BB001 ITM -- CPU_ReadMem(16 bytes @ 0xE00FF010) -- CPU_ReadMem(16 bytes @ 0xE0040FF0) -- CPU_ReadMem(16 bytes @ 0xE0040FE0)ROMTbl 0 [4]: FFF41000, CID: B105900D, PID: 000BB9A1 TPIU -- CPU_ReadMem(16 bytes @ 0xE0041FF0) -- CPU_ReadMem(16 bytes @ 0xE0041FE0)ROMTbl 0 [5]: FFF42000, CID: B105900D, PID: 000BB925 ETM ScanLen=9 NumDevices=2 aId[0]=0x4BA00477 aIrRead[0]=0 aScanLen[0]=0
 aScanRead[0]=0 (0061ms, 0690ms total)
T3E88 000:770 JLINK_JTAG_GetDeviceID(DeviceIndex = 0)  returns 0x4BA00477 (0000ms, 0690ms total)
T3E88 000:770 JLINK_JTAG_GetDeviceInfo(DeviceIndex = 0)  returns 0x00 (0000ms, 0690ms total)
T3E88 000:770 JLINK_JTAG_GetDeviceID(DeviceIndex = 1)  returns 0x6413041 (0000ms, 0690ms total)
T3E88 000:770 JLINK_JTAG_GetDeviceInfo(DeviceIndex = 1)  returns 0x00 (0000ms, 0690ms total)
T3E88 000:770 JLINK_GetDLLVersion()  returns 51008 (0000ms, 0690ms total)
T3E88 000:770 JLINK_CORE_GetFound()  returns 0xE0000FF (0000ms, 0690ms total)
T3E88 000:770 JLINK_GetDebugInfo(0x100) -- Value=0xE00FF003  returns 0x00 (0000ms, 0690ms total)
T3E88 000:771 JLINK_GetDebugInfo(0x100) -- Value=0xE00FF003  returns 0x00 (0000ms, 0690ms total)
T3E88 000:771 JLINK_GetDebugInfo(0x101) -- Value=0xE0041000  returns 0x00 (0000ms, 0690ms total)
T3E88 000:771 JLINK_GetDebugInfo(0x102) -- Value=0x00000000  returns 0x00 (0000ms, 0690ms total)
T3E88 000:771 JLINK_GetDebugInfo(0x103) -- Value=0xE0040000  returns 0x00 (0000ms, 0690ms total)
T3E88 000:771 JLINK_GetDebugInfo(0x104) -- Value=0xE0000000  returns 0x00 (0000ms, 0690ms total)
T3E88 000:771 JLINK_GetDebugInfo(0x105) -- Value=0xE0001000  returns 0x00 (0000ms, 0690ms total)
T3E88 000:771 JLINK_GetDebugInfo(0x106) -- Value=0xE0002000  returns 0x00 (0000ms, 0690ms total)
T3E88 000:771 JLINK_GetDebugInfo(0x107) -- Value=0xE000E000  returns 0x00 (0000ms, 0690ms total)
T3E88 000:771 JLINK_GetDebugInfo(0x10C) -- Value=0xE000EDF0  returns 0x00 (0000ms, 0690ms total)
T3E88 000:771 JLINK_ReadMemU32(0xE000EF40, 0x0001 Items, ...) -- CPU is running -- CPU_ReadMem(4 bytes @ 0xE000EF40) - Data: 21 00 11 10  returns 0x01 (0000ms, 0690ms total)
T3E88 000:771 JLINK_ReadMemU32(0xE000EF44, 0x0001 Items, ...) -- CPU is running -- CPU_ReadMem(4 bytes @ 0xE000EF44) - Data: 11 00 00 11  returns 0x01 (0001ms, 0691ms total)
T3E88 000:772 JLINK_ReadMemU32(0xE000ED00, 0x0001 Items, ...) -- CPU is running -- CPU_ReadMem(4 bytes @ 0xE000ED00) - Data: 41 C2 0F 41  returns 0x01 (0000ms, 0691ms total)
T3E88 000:772 JLINK_SetResetType(JLINKARM_RESET_TYPE_NORMAL)  returns JLINKARM_RESET_TYPE_NORMAL (0000ms, 0691ms total)
T3E88 000:772 JLINK_Reset() -- CPU is running -- CPU_WriteMem(4 bytes @ 0xE000EDF0) -- CPU is running -- CPU_WriteMem(4 bytes @ 0xE000EDFC) -- CPU is running -- CPU_WriteMem(4 bytes @ 0xE000ED0C) -- CPU is running -- CPU_ReadMem(4 bytes @ 0xE000EDF0) -- CPU is running -- CPU_ReadMem(4 bytes @ 0xE000EDF0) -- CPU is running -- CPU_WriteMem(4 bytes @ 0xE000EDF0) -- CPU is running -- CPU_WriteMem(4 bytes @ 0xE000EDFC) -- CPU is running -- CPU_ReadMem(4 bytes @ 0xE000EDF0) >0x80 JTAG> >0x40 JTAG> >0x30 JTAG>
 >0x40 JTAG> >0x50 JTAG> >0x40 JTAG> -- CPU_WriteMem(4 bytes @ 0xE000EDFC) -- CPU_WriteMem(4 bytes @ 0xE0001028) -- CPU_WriteMem(4 bytes @ 0xE0001038) -- CPU_WriteMem(4 bytes @ 0xE0001048) -- CPU_WriteMem(4 bytes @ 0xE0001058) -- CPU_WriteMem(4 bytes @ 0xE0002000) -- CPU_ReadMem(4 bytes @ 0xE000EDFC) -- CPU_ReadMem(4 bytes @ 0xE0001000) (0024ms, 0715ms total)
T3E88 000:796 JLINK_ReadReg(R15 (PC))  returns 0x0800008C (0000ms, 0715ms total)
T3E88 000:796 JLINK_ReadReg(XPSR)  returns 0x01000000 (0000ms, 0715ms total)
T3E88 000:796 JLINK_Halt()  returns 0x00 (0000ms, 0715ms total)
T3E88 000:796 JLINK_IsHalted()  returns TRUE (0000ms, 0715ms total)
T3E88 000:796 JLINK_ReadMemU32(0xE000EDF0, 0x0001 Items, ...) -- CPU_ReadMem(4 bytes @ 0xE000EDF0) - Data: 03 00 03 00  returns 0x01 (0000ms, 0715ms total)
T3E88 000:796 JLINK_WriteU32(0xE000EDF0, 0xA05F0003) -- CPU_WriteMem(4 bytes @ 0xE000EDF0)  returns 0x00 (0001ms, 0716ms total)
T3E88 000:797 JLINK_WriteU32(0xE000EDFC, 0x01000000) -- CPU_WriteMem(4 bytes @ 0xE000EDFC)  returns 0x00 (0000ms, 0716ms total)
T3E88 000:798 JLINK_GetHWStatus(...)  returns 0x00 (0000ms, 0716ms total)
T3E88 000:799 JLINK_GetNumBPUnits(Type = 0xFFFFFF00)  returns 0x06 (0001ms, 0718ms total)
T3E88 000:800 JLINK_GetNumBPUnits(Type = 0xF0)  returns 0x2000 (0000ms, 0718ms total)
T3E88 000:800 JLINK_GetNumWPUnits()  returns 0x04 (0000ms, 0718ms total)
T3E88 000:801 JLINK_GetSpeed()  returns 0x1388 (0000ms, 0718ms total)
T3E88 000:801 JLINK_ReadMemU32(0xE000E004, 0x0001 Items, ...) -- CPU_ReadMem(4 bytes @ 0xE000E004) - Data: 02 00 00 00  returns 0x01 (0001ms, 0719ms total)
T3E88 000:802 JLINK_ReadMemU32(0xE000E004, 0x0001 Items, ...) -- CPU_ReadMem(4 bytes @ 0xE000E004) - Data: 02 00 00 00  returns 0x01 (0000ms, 0719ms total)
T3E88 000:802 JLINK_WriteMem(0xE0001000, 0x001C Bytes, ...) - Data: 01 00 00 00 00 00 00 00 00 00 00 00 00 00 00 00 ... -- CPU_WriteMem(28 bytes @ 0xE0001000)  returns 0x1C (0001ms, 0720ms total)
T3E88 000:803 JLINK_ReadMem (0xE0001000, 0x001C Bytes, ...) -- CPU_ReadMem(28 bytes @ 0xE0001000) - Data: 01 00 00 40 00 00 00 00 00 00 00 00 00 00 00 00 ...  returns 0x00 (0001ms, 0721ms total)
T3E88 000:804 JLINK_ReadReg(R15 (PC))  returns 0x0800008C (0000ms, 0721ms total)
T3E88 000:804 JLINK_ReadReg(XPSR)  returns 0x01000000 (0000ms, 0721ms total)
T3E88 000:883 JLINK_SetResetType(JLINKARM_RESET_TYPE_NORMAL)  returns JLINKARM_RESET_TYPE_NORMAL (0000ms, 0721ms total)
T3E88 000:883 JLINK_Reset() -- CPU_WriteMem(4 bytes @ 0xE000EDF0) -- CPU_WriteMem(4 bytes @ 0xE000EDFC) -- CPU_WriteMem(4 bytes @ 0xE000ED0C) -- CPU_ReadMem(4 bytes @ 0xE000EDF0) -- CPU_ReadMem(4 bytes @ 0xE000EDF0) -- CPU_WriteMem(4 bytes @ 0xE000EDF0) -- CPU_WriteMem(4 bytes @ 0xE000EDFC) -- CPU is running -- CPU_ReadMem(4 bytes @ 0xE000EDF0) >0x80 JTAG> >0x40 JTAG> >0x30 JTAG> >0x40 JTAG> >0x50 JTAG> >0x40 JTAG> -- CPU_WriteMem(4 bytes @ 0xE000EDFC) -- CPU_WriteMem(4 bytes @ 0xE0001028)
 -- CPU_WriteMem(4 bytes @ 0xE0001038) -- CPU_WriteMem(4 bytes @ 0xE0001048) -- CPU_WriteMem(4 bytes @ 0xE0001058) -- CPU_WriteMem(4 bytes @ 0xE0002000) -- CPU_ReadMem(4 bytes @ 0xE000EDFC) -- CPU_ReadMem(4 bytes @ 0xE0001000) (0024ms, 0745ms total)
T3E88 000:907 JLINK_ReadReg(R15 (PC))  returns 0x0800008C (0000ms, 0745ms total)
T3E88 000:907 JLINK_ReadReg(XPSR)  returns 0x01000000 (0000ms, 0745ms total)
T3E88 000:907 JLINK_ReadMem (0x0800008C, 0x003C Bytes, ...) -- CPU_ReadMem(128 bytes @ 0x08000080) -- Updating C cache (128 bytes @ 0x08000080) -- Read from C cache (60 bytes @ 0x0800008C) - Data: 0F 48 01 68 41 F0 20 01 01 60 0E 48 01 68 41 F4 ...  returns 0x00 (0002ms, 0747ms total)
T23F8 003:713 JLINK_SetBPEx(Addr = 0x08000190, Type = 0xFFFFFFF2)  returns 0x00000001 (0000ms, 0747ms total)
T23F8 003:713 JLINK_Go() -- CPU_ReadMem(4 bytes @ 0xE0001000) -- CPU_WriteMem(4 bytes @ 0xE0002008) -- CPU_WriteMem(4 bytes @ 0xE000200C) -- CPU_WriteMem(4 bytes @ 0xE0002010) -- CPU_WriteMem(4 bytes @ 0xE0002014) -- CPU_WriteMem(4 bytes @ 0xE0002018) -- CPU_WriteMem(4 bytes @ 0xE000201C) -- CPU_WriteMem(4 bytes @ 0xE0001004) (0002ms, 0749ms total)
T23F8 003:816 JLINK_IsHalted()  returns FALSE (0000ms, 0749ms total)
T23F8 003:917 JLINK_IsHalted()  returns FALSE (0000ms, 0749ms total)
T23F8 004:018 JLINK_IsHalted()  returns FALSE (0000ms, 0749ms total)
T23F8 004:118 JLINK_IsHalted()  returns FALSE (0000ms, 0749ms total)
T23F8 004:219 JLINK_ReadMemU32(0xE0001004, 0x0001 Items, ...) -- CPU is running -- CPU_ReadMem(4 bytes @ 0xE0001004) - Data: 29 68 7B 00  returns 0x01 (0000ms, 0749ms total)
T23F8 004:219 JLINK_IsHalted()  returns FALSE (0001ms, 0750ms total)
T23F8 004:321 JLINK_IsHalted()  returns FALSE (0000ms, 0749ms total)
T23F8 004:422 JLINK_IsHalted()  returns FALSE (0000ms, 0749ms total)
T23F8 004:524 JLINK_IsHalted()  returns FALSE (0000ms, 0749ms total)
T23F8 004:625 JLINK_IsHalted()  returns FALSE (0000ms, 0749ms total)
T23F8 004:726 JLINK_IsHalted()  returns FALSE (0000ms, 0749ms total)
T23F8 004:827 JLINK_ReadMemU32(0xE0001004, 0x0001 Items, ...) -- CPU is running -- CPU_ReadMem(4 bytes @ 0xE0001004) - Data: 70 01 10 01  returns 0x01 (0000ms, 0749ms total)
T23F8 004:827 JLINK_IsHalted()  returns FALSE (0001ms, 0750ms total)
T23F8 004:929 JLINK_IsHalted()  returns FALSE (0000ms, 0749ms total)
T23F8 005:029 JLINK_IsHalted()  returns FALSE (0000ms, 0749ms total)
T23F8 005:130 JLINK_IsHalted()  returns FALSE (0000ms, 0749ms total)
T23F8 005:232 JLINK_IsHalted()  returns FALSE (0000ms, 0749ms total)
T23F8 005:333 JLINK_IsHalted()  returns FALSE (0000ms, 0749ms total)
T23F8 005:433 JLINK_ReadMemU32(0xE0001004, 0x0001 Items, ...) -- CPU is running -- CPU_ReadMem(4 bytes @ 0xE0001004) - Data: F7 57 A4 01  returns 0x01 (0000ms, 0749ms total)
T23F8 005:433 JLINK_IsHalted()  returns FALSE (0002ms, 0751ms total)
T23F8 005:535 JLINK_IsHalted()  returns FALSE (0000ms, 0749ms total)
T23F8 005:636 JLINK_IsHalted()  returns FALSE (0000ms, 0749ms total)
T23F8 005:737 JLINK_IsHalted()  returns FALSE (0000ms, 0749ms total)
T23F8 005:838 JLINK_IsHalted()  returns FALSE (0000ms, 0749ms total)
T23F8 005:939 JLINK_ReadMemU32(0xE0001004, 0x0001 Items, ...) -- CPU is running -- CPU_ReadMem(4 bytes @ 0xE0001004) - Data: 91 E9 1F 02  returns 0x01 (0000ms, 0749ms total)
T23F8 005:939 JLINK_IsHalted()  returns FALSE (0001ms, 0750ms total)
T23F8 006:041 JLINK_IsHalted()  returns FALSE (0000ms, 0749ms total)
T3E88 006:048 JLINK_SetResetType(JLINKARM_RESET_TYPE_NORMAL)  returns JLINKARM_RESET_TYPE_NORMAL (0000ms, 0749ms total)
T3E88 006:048 JLINK_ResetNoHalt() >0x2F8 JTAG>TotalIRLen = 9, IRPrint = 0x0011 >0x30 JTAG> >0x210 JTAG> >0x40 JTAG> >0x40 JTAG> >0x40 JTAG> >0x30 JTAG> >0x40 JTAG> >0x40 JTAG> >0x40 JTAG> >0x40 JTAG> >0x40 JTAG> >0x40 JTAG> >0x40 JTAG> >0x40 JTAG> >0x40 JTAG> >0x40 JTAG> >0x40 JTAG> >0x40 JTAG> >0x40 JTAG> >0x40 JTAG> >0x40 JTAG> >0x40 JTAG> >0x40 JTAG> >0x2F8 JTAG>TotalIRLen = 9, IRPrint = 0x0011 >0x30 JTAG> >0x210 JTAG> >0x70 JTAG> >0x50 JTAG> >0x40 JTAG> >0x50 JTAG> >0x80 JTAG> >0x40 JTAG> >0x30 JTAG>
 >0x40 JTAG> >0x40 JTAG> >0x30 JTAG> >0x40 JTAG> >0x50 JTAG>Found Cortex-M4 r0p1, Little endian. -- CPU_ReadMem(4 bytes @ 0xE000EDF0) -- CPU_ReadMem(4 bytes @ 0xE0002000)FPUnit: 6 code (BP) slots and 2 literal slots -- CPU_ReadMem(4 bytes @ 0xE000EDFC) -- CPU_ReadMem(4 bytes @ 0xE0001000) -- CPU_WriteMem(4 bytes @ 0xE0001000) -- CPU_ReadMem(4 bytes @ 0xE000ED88) -- CPU_WriteMem(4 bytes @ 0xE000ED88) -- CPU_ReadMem(4 bytes @ 0xE000ED88) -- CPU_WriteMem(4 bytes @ 0xE000ED88)CoreSight components:
ROMTbl 0 @ E00FF000 -- CPU_ReadMem(16 bytes @ 0xE00FF000) -- CPU_ReadMem(16 bytes @ 0xE000EFF0) -- CPU_ReadMem(16 bytes @ 0xE000EFE0)ROMTbl 0 [0]: FFF0F000, CID: B105E00D, PID: 000BB00C SCS -- CPU_ReadMem(16 bytes @ 0xE0001FF0) -- CPU_ReadMem(16 bytes @ 0xE0001FE0)ROMTbl 0 [1]: FFF02000, CID: B105E00D, PID: 003BB002 DWT -- CPU_ReadMem(16 bytes @ 0xE0002FF0) -- CPU_ReadMem(16 bytes @ 0xE0002FE0)ROMTbl 0 [2]: FFF03000, CID: B105E00D, PID: 002BB003 FPB -- CPU_ReadMem(16 bytes @ 0xE0000FF0)
 -- CPU_ReadMem(16 bytes @ 0xE0000FE0)ROMTbl 0 [3]: FFF01000, CID: B105E00D, PID: 003BB001 ITM -- CPU_ReadMem(16 bytes @ 0xE00FF010) -- CPU_ReadMem(16 bytes @ 0xE0040FF0) -- CPU_ReadMem(16 bytes @ 0xE0040FE0)ROMTbl 0 [4]: FFF41000, CID: B105900D, PID: 000BB9A1 TPIU -- CPU_ReadMem(16 bytes @ 0xE0041FF0) -- CPU_ReadMem(16 bytes @ 0xE0041FE0)ROMTbl 0 [5]: FFF42000, CID: B105900D, PID: 000BB925 ETM
                JLINK_Reset() -- CPU is running -- CPU_WriteMem(4 bytes @ 0xE000EDF0) -- CPU is running -- CPU_WriteMem(4 bytes @ 0xE000EDFC) -- CPU is running -- CPU_WriteMem(4 bytes @ 0xE000ED0C) -- CPU is running -- CPU_ReadMem(4 bytes @ 0xE000EDF0) -- CPU is running -- CPU_ReadMem(4 bytes @ 0xE000EDF0) -- CPU is running -- CPU_WriteMem(4 bytes @ 0xE000EDF0) -- CPU is running -- CPU_WriteMem(4 bytes @ 0xE000EDFC) -- CPU is running -- CPU_ReadMem(4 bytes @ 0xE000EDF0) >0x80 JTAG> >0x40 JTAG>
 >0x30 JTAG> >0x40 JTAG> >0x50 JTAG> >0x40 JTAG> -- CPU_WriteMem(4 bytes @ 0xE000EDFC) -- CPU_WriteMem(4 bytes @ 0xE0001028) -- CPU_WriteMem(4 bytes @ 0xE0001038) -- CPU_WriteMem(4 bytes @ 0xE0001048) -- CPU_WriteMem(4 bytes @ 0xE0001058) -- CPU_WriteMem(4 bytes @ 0xE0002000) -- CPU_ReadMem(4 bytes @ 0xE000EDFC) -- CPU_ReadMem(4 bytes @ 0xE0001000) (0025ms, 0025ms total)
                JLINK_Go() -- CPU_ReadMem(4 bytes @ 0xE0001000) -- CPU_WriteMem(4 bytes @ 0xE0002008) -- CPU_WriteMem(4 bytes @ 0xE000200C) -- CPU_WriteMem(4 bytes @ 0xE0002010) -- CPU_WriteMem(4 bytes @ 0xE0002014) -- CPU_WriteMem(4 bytes @ 0xE0002018) -- CPU_WriteMem(4 bytes @ 0xE000201C) -- CPU_WriteMem(4 bytes @ 0xE0001004) (0003ms, 0028ms total)
               (0052ms, 0801ms total)
T23F8 006:141 JLINK_IsHalted()  returns FALSE (0000ms, 0801ms total)
T23F8 006:242 JLINK_IsHalted()  returns FALSE (0000ms, 0801ms total)
T23F8 006:344 JLINK_IsHalted()  returns FALSE (0000ms, 0801ms total)
T23F8 006:444 JLINK_IsHalted()  returns FALSE (0000ms, 0801ms total)
T23F8 006:545 JLINK_ReadMemU32(0xE0001004, 0x0001 Items, ...) -- CPU is running -- CPU_ReadMem(4 bytes @ 0xE0001004) - Data: 0D D4 6C 00  returns 0x01 (0000ms, 0801ms total)
T23F8 006:547 JLINK_IsHalted()  returns FALSE (0001ms, 0802ms total)
T23F8 006:649 JLINK_IsHalted()  returns FALSE (0000ms, 0801ms total)
T23F8 006:750 JLINK_IsHalted()  returns FALSE (0000ms, 0801ms total)
T23F8 006:851 JLINK_IsHalted()  returns FALSE (0000ms, 0801ms total)
T23F8 006:952 JLINK_IsHalted()  returns FALSE (0000ms, 0801ms total)
T23F8 007:053 JLINK_IsHalted()  returns FALSE (0000ms, 0801ms total)
T23F8 007:154 JLINK_ReadMemU32(0xE0001004, 0x0001 Items, ...) -- CPU is running -- CPU_ReadMem(4 bytes @ 0xE0001004) - Data: A4 B8 01 01  returns 0x01 (0000ms, 0801ms total)
T23F8 007:154 JLINK_IsHalted()  returns FALSE (0000ms, 0801ms total)
T23F8 007:255 JLINK_IsHalted()  returns FALSE (0001ms, 0802ms total)
T23F8 007:356 JLINK_IsHalted()  returns FALSE (0000ms, 0801ms total)
T23F8 007:458 JLINK_IsHalted()  returns FALSE (0000ms, 0801ms total)
T23F8 007:559 JLINK_IsHalted()  returns FALSE (0000ms, 0801ms total)
T23F8 007:660 JLINK_IsHalted()  returns FALSE (0001ms, 0802ms total)
T23F8 007:762 JLINK_ReadMemU32(0xE0001004, 0x0001 Items, ...) -- CPU is running -- CPU_ReadMem(4 bytes @ 0xE0001004) - Data: F0 52 96 01  returns 0x01 (0000ms, 0801ms total)
T23F8 007:762 JLINK_IsHalted()  returns FALSE (0001ms, 0802ms total)
T3E88 007:831 JLINK_SetResetType(JLINKARM_RESET_TYPE_NORMAL)  returns JLINKARM_RESET_TYPE_NORMAL (0000ms, 0801ms total)
T3E88 007:831 JLINK_ResetNoHalt() >0x2F8 JTAG>TotalIRLen = 9, IRPrint = 0x0011 >0x30 JTAG> >0x210 JTAG> >0x40 JTAG> >0x40 JTAG> >0x40 JTAG> >0x30 JTAG> >0x40 JTAG> >0x40 JTAG> >0x40 JTAG> >0x40 JTAG> >0x40 JTAG> >0x40 JTAG> >0x40 JTAG> >0x40 JTAG> >0x40 JTAG> >0x40 JTAG> >0x40 JTAG> >0x40 JTAG> >0x40 JTAG> >0x40 JTAG> >0x40 JTAG> >0x40 JTAG> >0x40 JTAG> >0x2F8 JTAG>TotalIRLen = 9, IRPrint = 0x0011 >0x30 JTAG> >0x210 JTAG> >0x70 JTAG> >0x50 JTAG> >0x40 JTAG> >0x50 JTAG> >0x80 JTAG> >0x40 JTAG> >0x30 JTAG>
 >0x40 JTAG> >0x40 JTAG> >0x30 JTAG> >0x40 JTAG> >0x50 JTAG>Found Cortex-M4 r0p1, Little endian. -- CPU_ReadMem(4 bytes @ 0xE000EDF0) -- CPU_ReadMem(4 bytes @ 0xE0002000)FPUnit: 6 code (BP) slots and 2 literal slots -- CPU_ReadMem(4 bytes @ 0xE000EDFC) -- CPU_ReadMem(4 bytes @ 0xE0001000) -- CPU_WriteMem(4 bytes @ 0xE0001000) -- CPU_ReadMem(4 bytes @ 0xE000ED88) -- CPU_WriteMem(4 bytes @ 0xE000ED88) -- CPU_ReadMem(4 bytes @ 0xE000ED88) -- CPU_WriteMem(4 bytes @ 0xE000ED88)CoreSight components:
ROMTbl 0 @ E00FF000 -- CPU_ReadMem(16 bytes @ 0xE00FF000) -- CPU_ReadMem(16 bytes @ 0xE000EFF0) -- CPU_ReadMem(16 bytes @ 0xE000EFE0)ROMTbl 0 [0]: FFF0F000, CID: B105E00D, PID: 000BB00C SCS -- CPU_ReadMem(16 bytes @ 0xE0001FF0) -- CPU_ReadMem(16 bytes @ 0xE0001FE0)ROMTbl 0 [1]: FFF02000, CID: B105E00D, PID: 003BB002 DWT -- CPU_ReadMem(16 bytes @ 0xE0002FF0) -- CPU_ReadMem(16 bytes @ 0xE0002FE0)ROMTbl 0 [2]: FFF03000, CID: B105E00D, PID: 002BB003 FPB -- CPU_ReadMem(16 bytes @ 0xE0000FF0)
 -- CPU_ReadMem(16 bytes @ 0xE0000FE0)ROMTbl 0 [3]: FFF01000, CID: B105E00D, PID: 003BB001 ITM -- CPU_ReadMem(16 bytes @ 0xE00FF010) -- CPU_ReadMem(16 bytes @ 0xE0040FF0) -- CPU_ReadMem(16 bytes @ 0xE0040FE0)ROMTbl 0 [4]: FFF41000, CID: B105900D, PID: 000BB9A1 TPIU -- CPU_ReadMem(16 bytes @ 0xE0041FF0) -- CPU_ReadMem(16 bytes @ 0xE0041FE0)ROMTbl 0 [5]: FFF42000, CID: B105900D, PID: 000BB925 ETM
                JLINK_Reset() -- CPU is running -- CPU_WriteMem(4 bytes @ 0xE000EDF0) -- CPU is running -- CPU_WriteMem(4 bytes @ 0xE000EDFC) -- CPU is running -- CPU_WriteMem(4 bytes @ 0xE000ED0C) -- CPU is running -- CPU_ReadMem(4 bytes @ 0xE000EDF0) -- CPU is running -- CPU_ReadMem(4 bytes @ 0xE000EDF0) -- CPU is running -- CPU_WriteMem(4 bytes @ 0xE000EDF0) -- CPU is running -- CPU_WriteMem(4 bytes @ 0xE000EDFC) -- CPU is running -- CPU_ReadMem(4 bytes @ 0xE000EDF0) >0x80 JTAG> >0x40 JTAG>
 >0x30 JTAG> >0x40 JTAG> >0x50 JTAG> >0x40 JTAG> -- CPU_WriteMem(4 bytes @ 0xE000EDFC) -- CPU_WriteMem(4 bytes @ 0xE0001028) -- CPU_WriteMem(4 bytes @ 0xE0001038) -- CPU_WriteMem(4 bytes @ 0xE0001048) -- CPU_WriteMem(4 bytes @ 0xE0001058) -- CPU_WriteMem(4 bytes @ 0xE0002000) -- CPU_ReadMem(4 bytes @ 0xE000EDFC) -- CPU_ReadMem(4 bytes @ 0xE0001000) (0024ms, 0024ms total)
                JLINK_Go() -- CPU_ReadMem(4 bytes @ 0xE0001000) -- CPU_WriteMem(4 bytes @ 0xE0002008) -- CPU_WriteMem(4 bytes @ 0xE000200C) -- CPU_WriteMem(4 bytes @ 0xE0002010) -- CPU_WriteMem(4 bytes @ 0xE0002014) -- CPU_WriteMem(4 bytes @ 0xE0002018) -- CPU_WriteMem(4 bytes @ 0xE000201C) -- CPU_WriteMem(4 bytes @ 0xE0001004) (0002ms, 0026ms total)
               (0062ms, 0863ms total)
T23F8 007:894 JLINK_IsHalted()  returns FALSE (0000ms, 0863ms total)
T23F8 007:995 JLINK_IsHalted()  returns FALSE (0000ms, 0863ms total)
T3E88 008:001 JLINK_SetResetType(JLINKARM_RESET_TYPE_NORMAL)  returns JLINKARM_RESET_TYPE_NORMAL (0000ms, 0863ms total)
T3E88 008:001 JLINK_ResetNoHalt() >0x2F8 JTAG>TotalIRLen = 9, IRPrint = 0x0011 >0x30 JTAG> >0x210 JTAG> >0x40 JTAG> >0x40 JTAG> >0x40 JTAG> >0x30 JTAG> >0x40 JTAG> >0x40 JTAG> >0x40 JTAG> >0x40 JTAG> >0x40 JTAG> >0x40 JTAG> >0x40 JTAG> >0x40 JTAG> >0x40 JTAG> >0x40 JTAG> >0x40 JTAG> >0x40 JTAG> >0x40 JTAG> >0x40 JTAG> >0x40 JTAG> >0x40 JTAG> >0x40 JTAG> >0x2F8 JTAG>TotalIRLen = 9, IRPrint = 0x0011 >0x30 JTAG> >0x210 JTAG> >0x70 JTAG> >0x50 JTAG> >0x40 JTAG> >0x50 JTAG> >0x80 JTAG> >0x40 JTAG> >0x30 JTAG>
 >0x40 JTAG> >0x40 JTAG> >0x30 JTAG> >0x40 JTAG> >0x50 JTAG>Found Cortex-M4 r0p1, Little endian. -- CPU_ReadMem(4 bytes @ 0xE000EDF0) -- CPU_ReadMem(4 bytes @ 0xE0002000)FPUnit: 6 code (BP) slots and 2 literal slots -- CPU_ReadMem(4 bytes @ 0xE000EDFC) -- CPU_ReadMem(4 bytes @ 0xE0001000) -- CPU_WriteMem(4 bytes @ 0xE0001000) -- CPU_ReadMem(4 bytes @ 0xE000ED88) -- CPU_WriteMem(4 bytes @ 0xE000ED88) -- CPU_ReadMem(4 bytes @ 0xE000ED88) -- CPU_WriteMem(4 bytes @ 0xE000ED88)CoreSight components:
ROMTbl 0 @ E00FF000 -- CPU_ReadMem(16 bytes @ 0xE00FF000) -- CPU_ReadMem(16 bytes @ 0xE000EFF0) -- CPU_ReadMem(16 bytes @ 0xE000EFE0)ROMTbl 0 [0]: FFF0F000, CID: B105E00D, PID: 000BB00C SCS -- CPU_ReadMem(16 bytes @ 0xE0001FF0) -- CPU_ReadMem(16 bytes @ 0xE0001FE0)ROMTbl 0 [1]: FFF02000, CID: B105E00D, PID: 003BB002 DWT -- CPU_ReadMem(16 bytes @ 0xE0002FF0) -- CPU_ReadMem(16 bytes @ 0xE0002FE0)ROMTbl 0 [2]: FFF03000, CID: B105E00D, PID: 002BB003 FPB -- CPU_ReadMem(16 bytes @ 0xE0000FF0)
 -- CPU_ReadMem(16 bytes @ 0xE0000FE0)ROMTbl 0 [3]: FFF01000, CID: B105E00D, PID: 003BB001 ITM -- CPU_ReadMem(16 bytes @ 0xE00FF010) -- CPU_ReadMem(16 bytes @ 0xE0040FF0) -- CPU_ReadMem(16 bytes @ 0xE0040FE0)ROMTbl 0 [4]: FFF41000, CID: B105900D, PID: 000BB9A1 TPIU -- CPU_ReadMem(16 bytes @ 0xE0041FF0) -- CPU_ReadMem(16 bytes @ 0xE0041FE0)ROMTbl 0 [5]: FFF42000, CID: B105900D, PID: 000BB925 ETM
                JLINK_Reset() -- CPU is running -- CPU_WriteMem(4 bytes @ 0xE000EDF0) -- CPU is running -- CPU_WriteMem(4 bytes @ 0xE000EDFC) -- CPU is running -- CPU_WriteMem(4 bytes @ 0xE000ED0C) -- CPU is running -- CPU_ReadMem(4 bytes @ 0xE000EDF0) -- CPU is running -- CPU_ReadMem(4 bytes @ 0xE000EDF0) -- CPU is running -- CPU_WriteMem(4 bytes @ 0xE000EDF0) -- CPU is running -- CPU_WriteMem(4 bytes @ 0xE000EDFC) -- CPU is running -- CPU_ReadMem(4 bytes @ 0xE000EDF0) >0x80 JTAG> >0x40 JTAG>
 >0x30 JTAG> >0x40 JTAG> >0x50 JTAG> >0x40 JTAG> -- CPU_WriteMem(4 bytes @ 0xE000EDFC) -- CPU_WriteMem(4 bytes @ 0xE0001028) -- CPU_WriteMem(4 bytes @ 0xE0001038) -- CPU_WriteMem(4 bytes @ 0xE0001048) -- CPU_WriteMem(4 bytes @ 0xE0001058) -- CPU_WriteMem(4 bytes @ 0xE0002000) -- CPU_ReadMem(4 bytes @ 0xE000EDFC) -- CPU_ReadMem(4 bytes @ 0xE0001000) (0024ms, 0024ms total)
                JLINK_Go() -- CPU_ReadMem(4 bytes @ 0xE0001000) -- CPU_WriteMem(4 bytes @ 0xE0002008) -- CPU_WriteMem(4 bytes @ 0xE000200C) -- CPU_WriteMem(4 bytes @ 0xE0002010) -- CPU_WriteMem(4 bytes @ 0xE0002014) -- CPU_WriteMem(4 bytes @ 0xE0002018) -- CPU_WriteMem(4 bytes @ 0xE000201C) -- CPU_WriteMem(4 bytes @ 0xE0001004) (0002ms, 0026ms total)
               (0050ms, 0913ms total)
T23F8 008:096 JLINK_IsHalted()  returns FALSE (0000ms, 0913ms total)
T3E88 008:164 JLINK_SetResetType(JLINKARM_RESET_TYPE_NORMAL)  returns JLINKARM_RESET_TYPE_NORMAL (0000ms, 0913ms total)
T3E88 008:164 JLINK_ResetNoHalt() >0x2F8 JTAG>TotalIRLen = 9, IRPrint = 0x0011 >0x30 JTAG> >0x210 JTAG> >0x40 JTAG> >0x40 JTAG> >0x40 JTAG> >0x30 JTAG> >0x40 JTAG> >0x40 JTAG> >0x40 JTAG> >0x40 JTAG> >0x40 JTAG> >0x40 JTAG> >0x40 JTAG> >0x40 JTAG> >0x40 JTAG> >0x40 JTAG> >0x40 JTAG> >0x40 JTAG> >0x40 JTAG> >0x40 JTAG> >0x40 JTAG> >0x40 JTAG> >0x40 JTAG> >0x2F8 JTAG>TotalIRLen = 9, IRPrint = 0x0011 >0x30 JTAG> >0x210 JTAG> >0x70 JTAG> >0x50 JTAG> >0x40 JTAG> >0x50 JTAG> >0x80 JTAG> >0x40 JTAG> >0x30 JTAG>
 >0x40 JTAG> >0x40 JTAG> >0x30 JTAG> >0x40 JTAG> >0x50 JTAG>Found Cortex-M4 r0p1, Little endian. -- CPU_ReadMem(4 bytes @ 0xE000EDF0) -- CPU_ReadMem(4 bytes @ 0xE0002000)FPUnit: 6 code (BP) slots and 2 literal slots -- CPU_ReadMem(4 bytes @ 0xE000EDFC) -- CPU_ReadMem(4 bytes @ 0xE0001000) -- CPU_WriteMem(4 bytes @ 0xE0001000) -- CPU_ReadMem(4 bytes @ 0xE000ED88) -- CPU_WriteMem(4 bytes @ 0xE000ED88) -- CPU_ReadMem(4 bytes @ 0xE000ED88) -- CPU_WriteMem(4 bytes @ 0xE000ED88)CoreSight components:
ROMTbl 0 @ E00FF000 -- CPU_ReadMem(16 bytes @ 0xE00FF000) -- CPU_ReadMem(16 bytes @ 0xE000EFF0) -- CPU_ReadMem(16 bytes @ 0xE000EFE0)ROMTbl 0 [0]: FFF0F000, CID: B105E00D, PID: 000BB00C SCS -- CPU_ReadMem(16 bytes @ 0xE0001FF0) -- CPU_ReadMem(16 bytes @ 0xE0001FE0)ROMTbl 0 [1]: FFF02000, CID: B105E00D, PID: 003BB002 DWT -- CPU_ReadMem(16 bytes @ 0xE0002FF0) -- CPU_ReadMem(16 bytes @ 0xE0002FE0)ROMTbl 0 [2]: FFF03000, CID: B105E00D, PID: 002BB003 FPB -- CPU_ReadMem(16 bytes @ 0xE0000FF0)
 -- CPU_ReadMem(16 bytes @ 0xE0000FE0)ROMTbl 0 [3]: FFF01000, CID: B105E00D, PID: 003BB001 ITM -- CPU_ReadMem(16 bytes @ 0xE00FF010) -- CPU_ReadMem(16 bytes @ 0xE0040FF0) -- CPU_ReadMem(16 bytes @ 0xE0040FE0)ROMTbl 0 [4]: FFF41000, CID: B105900D, PID: 000BB9A1 TPIU -- CPU_ReadMem(16 bytes @ 0xE0041FF0) -- CPU_ReadMem(16 bytes @ 0xE0041FE0)ROMTbl 0 [5]: FFF42000, CID: B105900D, PID: 000BB925 ETM
                JLINK_Reset() -- CPU is running -- CPU_WriteMem(4 bytes @ 0xE000EDF0) -- CPU is running -- CPU_WriteMem(4 bytes @ 0xE000EDFC) -- CPU is running -- CPU_WriteMem(4 bytes @ 0xE000ED0C) -- CPU is running -- CPU_ReadMem(4 bytes @ 0xE000EDF0) -- CPU is running -- CPU_ReadMem(4 bytes @ 0xE000EDF0) -- CPU is running -- CPU_WriteMem(4 bytes @ 0xE000EDF0) -- CPU is running -- CPU_WriteMem(4 bytes @ 0xE000EDFC) -- CPU is running -- CPU_ReadMem(4 bytes @ 0xE000EDF0) >0x80 JTAG> >0x40 JTAG>
 >0x30 JTAG> >0x40 JTAG> >0x50 JTAG> >0x40 JTAG> -- CPU_WriteMem(4 bytes @ 0xE000EDFC) -- CPU_WriteMem(4 bytes @ 0xE0001028) -- CPU_WriteMem(4 bytes @ 0xE0001038) -- CPU_WriteMem(4 bytes @ 0xE0001048) -- CPU_WriteMem(4 bytes @ 0xE0001058) -- CPU_WriteMem(4 bytes @ 0xE0002000) -- CPU_ReadMem(4 bytes @ 0xE000EDFC) -- CPU_ReadMem(4 bytes @ 0xE0001000) (0025ms, 0025ms total)
                JLINK_Go() -- CPU_ReadMem(4 bytes @ 0xE0001000) -- CPU_WriteMem(4 bytes @ 0xE0002008) -- CPU_WriteMem(4 bytes @ 0xE000200C) -- CPU_WriteMem(4 bytes @ 0xE0002010) -- CPU_WriteMem(4 bytes @ 0xE0002014) -- CPU_WriteMem(4 bytes @ 0xE0002018) -- CPU_WriteMem(4 bytes @ 0xE000201C) -- CPU_WriteMem(4 bytes @ 0xE0001004) (0002ms, 0027ms total)
               (0059ms, 0972ms total)
T23F8 008:223 JLINK_IsHalted()  returns FALSE (0000ms, 0972ms total)
T23F8 008:324 JLINK_ReadMemU32(0xE0001004, 0x0001 Items, ...) -- CPU is running -- CPU_ReadMem(4 bytes @ 0xE0001004) - Data: 6E B9 18 00  returns 0x01 (0000ms, 0972ms total)
T23F8 008:325 JLINK_IsHalted()  returns FALSE (0001ms, 0973ms total)
T23F8 008:427 JLINK_IsHalted()  returns FALSE (0000ms, 0972ms total)
T23F8 008:527 JLINK_IsHalted()  returns FALSE (0000ms, 0972ms total)
T23F8 008:629 JLINK_IsHalted()  returns FALSE (0000ms, 0972ms total)
T23F8 008:730 JLINK_IsHalted()  returns FALSE (0000ms, 0972ms total)
T23F8 008:831 JLINK_ReadMemU32(0xE0001004, 0x0001 Items, ...) -- CPU is running -- CPU_ReadMem(4 bytes @ 0xE0001004) - Data: 36 94 94 00  returns 0x01 (0000ms, 0972ms total)
T23F8 008:832 JLINK_IsHalted()  returns FALSE (0001ms, 0973ms total)
T23F8 008:933 JLINK_IsHalted()  returns FALSE (0000ms, 0972ms total)
T23F8 009:034 JLINK_IsHalted()  returns FALSE (0000ms, 0972ms total)
T23F8 009:135 JLINK_Halt()  returns 0x00 (0002ms, 0974ms total)
T23F8 009:137 JLINK_IsHalted()  returns TRUE (0000ms, 0974ms total)
T23F8 009:137 JLINK_IsHalted()  returns TRUE (0000ms, 0974ms total)
T23F8 009:137 JLINK_IsHalted()  returns TRUE (0000ms, 0974ms total)
T23F8 009:137 JLINK_ReadReg(R15 (PC))  returns 0x080000C8 (0000ms, 0974ms total)
T23F8 009:137 JLINK_ReadReg(XPSR)  returns 0x21000000 (0000ms, 0974ms total)
T23F8 009:137 JLINK_ClrBPEx(BPHandle = 0x00000001)  returns 0x00 (0000ms, 0974ms total)
T23F8 009:137 JLINK_ReadMemU32(0xE000ED30, 0x0001 Items, ...) -- CPU_ReadMem(4 bytes @ 0xE000ED30) - Data: 01 00 00 00  returns 0x01 (0000ms, 0974ms total)
T23F8 009:137 JLINK_ReadMemU32(0xE0001028, 0x0001 Items, ...) -- CPU_ReadMem(4 bytes @ 0xE0001028) - Data: 00 00 00 00  returns 0x01 (0001ms, 0975ms total)
T23F8 009:138 JLINK_ReadMemU32(0xE0001038, 0x0001 Items, ...) -- CPU_ReadMem(4 bytes @ 0xE0001038) - Data: 00 02 00 00  returns 0x01 (0000ms, 0975ms total)
T23F8 009:138 JLINK_ReadMemU32(0xE0001048, 0x0001 Items, ...) -- CPU_ReadMem(4 bytes @ 0xE0001048) - Data: 00 00 00 00  returns 0x01 (0001ms, 0976ms total)
T23F8 009:139 JLINK_ReadMemU32(0xE0001058, 0x0001 Items, ...) -- CPU_ReadMem(4 bytes @ 0xE0001058) - Data: 00 00 00 00  returns 0x01 (0000ms, 0976ms total)
T23F8 009:139 JLINK_ReadReg(R0)  returns 0x0005AA43 (0000ms, 0976ms total)
T23F8 009:139 JLINK_ReadReg(R1)  returns 0x40021418 (0000ms, 0976ms total)
T23F8 009:139 JLINK_ReadReg(R2)  returns 0x00000000 (0000ms, 0976ms total)
T23F8 009:139 JLINK_ReadReg(R3)  returns 0x00000000 (0000ms, 0976ms total)
T23F8 009:139 JLINK_ReadReg(R4)  returns 0x00000000 (0000ms, 0976ms total)
T23F8 009:139 JLINK_ReadReg(R5)  returns 0x00000000 (0000ms, 0976ms total)
T23F8 009:139 JLINK_ReadReg(R6)  returns 0x00000000 (0000ms, 0976ms total)
T23F8 009:139 JLINK_ReadReg(R7)  returns 0x00000000 (0000ms, 0976ms total)
T23F8 009:139 JLINK_ReadReg(R8)  returns 0x00000000 (0000ms, 0976ms total)
T23F8 009:139 JLINK_ReadReg(R9)  returns 0x00000000 (0001ms, 0977ms total)
T23F8 009:140 JLINK_ReadReg(R10)  returns 0x00000000 (0000ms, 0977ms total)
T23F8 009:140 JLINK_ReadReg(R11)  returns 0x00000000 (0000ms, 0977ms total)
T23F8 009:140 JLINK_ReadReg(R12)  returns 0x00000000 (0000ms, 0977ms total)
T23F8 009:140 JLINK_ReadReg(R13 (SP))  returns 0x00000000 (0000ms, 0977ms total)
T23F8 009:140 JLINK_ReadReg(R14)  returns 0x080000B9 (0000ms, 0977ms total)
T23F8 009:140 JLINK_ReadReg(R15 (PC))  returns 0x080000C8 (0000ms, 0977ms total)
T23F8 009:140 JLINK_ReadReg(XPSR)  returns 0x21000000 (0000ms, 0977ms total)
T23F8 009:140 JLINK_ReadReg(MSP)  returns 0x00000000 (0000ms, 0977ms total)
T23F8 009:140 JLINK_ReadReg(PSP)  returns 0x00000000 (0000ms, 0977ms total)
T23F8 009:140 JLINK_ReadReg(CFBP)  returns 0x00000000 (0000ms, 0977ms total)
T23F8 009:140 JLINK_ReadReg(FPSCR)  returns 0x00000000 (0003ms, 0980ms total)
T23F8 009:143 JLINK_ReadReg(FPS0)  returns 0x00000000 (0000ms, 0980ms total)
T23F8 009:143 JLINK_ReadReg(FPS1)  returns 0x00000000 (0000ms, 0980ms total)
T23F8 009:143 JLINK_ReadReg(FPS2)  returns 0x00000000 (0000ms, 0980ms total)
T23F8 009:143 JLINK_ReadReg(FPS3)  returns 0x00000000 (0000ms, 0980ms total)
T23F8 009:143 JLINK_ReadReg(FPS4)  returns 0x00000000 (0000ms, 0980ms total)
T23F8 009:143 JLINK_ReadReg(FPS5)  returns 0x00000000 (0000ms, 0980ms total)
T23F8 009:143 JLINK_ReadReg(FPS6)  returns 0x00000000 (0000ms, 0980ms total)
T23F8 009:143 JLINK_ReadReg(FPS7)  returns 0x00000000 (0000ms, 0980ms total)
T23F8 009:143 JLINK_ReadReg(FPS8)  returns 0x00000000 (0000ms, 0980ms total)
T23F8 009:143 JLINK_ReadReg(FPS9)  returns 0x00000000 (0000ms, 0980ms total)
T23F8 009:143 JLINK_ReadReg(FPS10)  returns 0x00000000 (0000ms, 0980ms total)
T23F8 009:143 JLINK_ReadReg(FPS11)  returns 0x00000000 (0000ms, 0980ms total)
T23F8 009:143 JLINK_ReadReg(FPS12)  returns 0x00000000 (0000ms, 0980ms total)
T23F8 009:143 JLINK_ReadReg(FPS13)  returns 0x00000000 (0001ms, 0981ms total)
T23F8 009:144 JLINK_ReadReg(FPS14)  returns 0x00000000 (0000ms, 0981ms total)
T23F8 009:144 JLINK_ReadReg(FPS15)  returns 0x00000000 (0000ms, 0981ms total)
T23F8 009:144 JLINK_ReadReg(FPS16)  returns 0x00000000 (0000ms, 0981ms total)
T23F8 009:144 JLINK_ReadReg(FPS17)  returns 0x00000000 (0000ms, 0981ms total)
T23F8 009:144 JLINK_ReadReg(FPS18)  returns 0x00000000 (0000ms, 0981ms total)
T23F8 009:144 JLINK_ReadReg(FPS19)  returns 0x00000000 (0000ms, 0981ms total)
T23F8 009:144 JLINK_ReadReg(FPS20)  returns 0x00000000 (0000ms, 0981ms total)
T23F8 009:144 JLINK_ReadReg(FPS21)  returns 0x00000000 (0000ms, 0981ms total)
T23F8 009:144 JLINK_ReadReg(FPS22)  returns 0x00000000 (0000ms, 0981ms total)
T23F8 009:144 JLINK_ReadReg(FPS23)  returns 0x00000000 (0000ms, 0981ms total)
T23F8 009:144 JLINK_ReadReg(FPS24)  returns 0x00000000 (0000ms, 0981ms total)
T23F8 009:144 JLINK_ReadReg(FPS25)  returns 0x00000000 (0000ms, 0981ms total)
T23F8 009:144 JLINK_ReadReg(FPS26)  returns 0x00000000 (0000ms, 0981ms total)
T23F8 009:144 JLINK_ReadReg(FPS27)  returns 0x00000000 (0000ms, 0981ms total)
T23F8 009:144 JLINK_ReadReg(FPS28)  returns 0x00000000 (0000ms, 0981ms total)
T23F8 009:144 JLINK_ReadReg(FPS29)  returns 0x00000000 (0000ms, 0981ms total)
T23F8 009:144 JLINK_ReadReg(FPS30)  returns 0x00000000 (0000ms, 0981ms total)
T23F8 009:144 JLINK_ReadReg(FPS31)  returns 0x00000000 (0000ms, 0981ms total)
T3E88 009:150 JLINK_ReadMemU32(0xE0001004, 0x0001 Items, ...) -- CPU_ReadMem(4 bytes @ 0xE0001004) - Data: 74 01 DF 00  returns 0x01 (0001ms, 0982ms total)
T3E88 009:154 JLINK_ReadMem (0x080000C8, 0x003C Bytes, ...) -- CPU_ReadMem(128 bytes @ 0x080000C0) -- Updating C cache (128 bytes @ 0x080000C0) -- Read from C cache (60 bytes @ 0x080000C8) - Data: FD D1 F7 46 30 38 02 40 00 14 02 40 08 14 02 40 ...  returns 0x00 (0002ms, 0984ms total)
T3E88 010:128 JLINK_SetResetType(JLINKARM_RESET_TYPE_NORMAL)  returns JLINKARM_RESET_TYPE_NORMAL (0000ms, 0984ms total)
T3E88 010:128 JLINK_Reset() -- CPU_WriteMem(4 bytes @ 0xE000EDF0) -- CPU_WriteMem(4 bytes @ 0xE000EDFC) -- CPU_WriteMem(4 bytes @ 0xE000ED0C) -- CPU_ReadMem(4 bytes @ 0xE000EDF0) -- CPU_ReadMem(4 bytes @ 0xE000EDF0) -- CPU_WriteMem(4 bytes @ 0xE000EDF0) -- CPU_WriteMem(4 bytes @ 0xE000EDFC) -- CPU is running -- CPU_ReadMem(4 bytes @ 0xE000EDF0) >0x80 JTAG> >0x40 JTAG> >0x30 JTAG> >0x40 JTAG> >0x50 JTAG> >0x40 JTAG> -- CPU_WriteMem(4 bytes @ 0xE000EDFC) -- CPU_WriteMem(4 bytes @ 0xE0001028)
 -- CPU_WriteMem(4 bytes @ 0xE0001038) -- CPU_WriteMem(4 bytes @ 0xE0001048) -- CPU_WriteMem(4 bytes @ 0xE0001058) -- CPU_WriteMem(4 bytes @ 0xE0002000) -- CPU_ReadMem(4 bytes @ 0xE000EDFC) -- CPU_ReadMem(4 bytes @ 0xE0001000) (0023ms, 1007ms total)
T3E88 010:151 JLINK_ReadReg(R15 (PC))  returns 0x0800008C (0000ms, 1007ms total)
T3E88 010:152 JLINK_ReadReg(XPSR)  returns 0x01000000 (0000ms, 1007ms total)
T3E88 010:152 JLINK_ReadMemU32(0xE0001004, 0x0001 Items, ...) -- CPU_ReadMem(4 bytes @ 0xE0001004) - Data: 5B 14 DF 00  returns 0x01 (0000ms, 1007ms total)
T3E88 010:155 JLINK_ReadMem (0x0800008C, 0x003C Bytes, ...) -- CPU_ReadMem(128 bytes @ 0x08000080) -- Updating C cache (128 bytes @ 0x08000080) -- Read from C cache (60 bytes @ 0x0800008C) - Data: 0F 48 01 68 41 F0 20 01 01 60 0E 48 01 68 41 F4 ...  returns 0x00 (0001ms, 1008ms total)
T23F8 011:318 JLINK_Step() -- Read from C cache (2 bytes @ 0x0800008C) -- CPU_ReadMem(4 bytes @ 0xE000ED18) -- CPU_WriteMem(4 bytes @ 0xE000ED18) -- CPU_ReadMem(4 bytes @ 0xE000ED18) -- CPU_WriteMem(4 bytes @ 0xE000ED18) -- Read from C cache (4 bytes @ 0x080000CC) -- Simulated  returns 0x00 (0001ms, 1009ms total)
T23F8 011:319 JLINK_ReadReg(R15 (PC))  returns 0x0800008E (0000ms, 1009ms total)
T23F8 011:319 JLINK_ReadReg(XPSR)  returns 0x01000000 (0000ms, 1009ms total)
T23F8 011:319 JLINK_ReadReg(R0)  returns 0x40023830 (0000ms, 1009ms total)
T23F8 011:319 JLINK_ReadReg(R1)  returns 0x00000000 (0000ms, 1009ms total)
T23F8 011:319 JLINK_ReadReg(R2)  returns 0x00000000 (0000ms, 1009ms total)
T23F8 011:319 JLINK_ReadReg(R3)  returns 0x00000000 (0001ms, 1010ms total)
T23F8 011:320 JLINK_ReadReg(R4)  returns 0x00000000 (0000ms, 1010ms total)
T23F8 011:320 JLINK_ReadReg(R5)  returns 0x00000000 (0000ms, 1010ms total)
T23F8 011:320 JLINK_ReadReg(R6)  returns 0x00000000 (0000ms, 1010ms total)
T23F8 011:320 JLINK_ReadReg(R7)  returns 0x00000000 (0000ms, 1010ms total)
T23F8 011:320 JLINK_ReadReg(R8)  returns 0x00000000 (0000ms, 1010ms total)
T23F8 011:320 JLINK_ReadReg(R9)  returns 0x00000000 (0000ms, 1010ms total)
T23F8 011:320 JLINK_ReadReg(R10)  returns 0x00000000 (0000ms, 1010ms total)
T23F8 011:320 JLINK_ReadReg(R11)  returns 0x00000000 (0000ms, 1010ms total)
T23F8 011:320 JLINK_ReadReg(R12)  returns 0x00000000 (0000ms, 1010ms total)
T23F8 011:320 JLINK_ReadReg(R13 (SP))  returns 0x00000000 (0000ms, 1010ms total)
T23F8 011:320 JLINK_ReadReg(R14)  returns 0xFFFFFFFF (0000ms, 1010ms total)
T23F8 011:320 JLINK_ReadReg(R15 (PC))  returns 0x0800008E (0000ms, 1010ms total)
T23F8 011:320 JLINK_ReadReg(XPSR)  returns 0x01000000 (0000ms, 1010ms total)
T23F8 011:320 JLINK_ReadReg(MSP)  returns 0x00000000 (0000ms, 1010ms total)
T23F8 011:320 JLINK_ReadReg(PSP)  returns 0x00000000 (0000ms, 1010ms total)
T23F8 011:320 JLINK_ReadReg(CFBP)  returns 0x00000000 (0000ms, 1010ms total)
T23F8 011:320 JLINK_ReadReg(FPSCR)  returns 0x00000000 (0003ms, 1013ms total)
T23F8 011:323 JLINK_ReadReg(FPS0)  returns 0x00000000 (0000ms, 1013ms total)
T23F8 011:323 JLINK_ReadReg(FPS1)  returns 0x00000000 (0000ms, 1013ms total)
T23F8 011:323 JLINK_ReadReg(FPS2)  returns 0x00000000 (0000ms, 1013ms total)
T23F8 011:323 JLINK_ReadReg(FPS3)  returns 0x00000000 (0000ms, 1013ms total)
T23F8 011:323 JLINK_ReadReg(FPS4)  returns 0x00000000 (0000ms, 1013ms total)
T23F8 011:323 JLINK_ReadReg(FPS5)  returns 0x00000000 (0000ms, 1013ms total)
T23F8 011:323 JLINK_ReadReg(FPS6)  returns 0x00000000 (0000ms, 1013ms total)
T23F8 011:323 JLINK_ReadReg(FPS7)  returns 0x00000000 (0000ms, 1013ms total)
T23F8 011:323 JLINK_ReadReg(FPS8)  returns 0x00000000 (0000ms, 1013ms total)
T23F8 011:323 JLINK_ReadReg(FPS9)  returns 0x00000000 (0000ms, 1013ms total)
T23F8 011:323 JLINK_ReadReg(FPS10)  returns 0x00000000 (0000ms, 1013ms total)
T23F8 011:323 JLINK_ReadReg(FPS11)  returns 0x00000000 (0000ms, 1013ms total)
T23F8 011:323 JLINK_ReadReg(FPS12)  returns 0x00000000 (0000ms, 1013ms total)
T23F8 011:323 JLINK_ReadReg(FPS13)  returns 0x00000000 (0000ms, 1013ms total)
T23F8 011:323 JLINK_ReadReg(FPS14)  returns 0x00000000 (0000ms, 1013ms total)
T23F8 011:323 JLINK_ReadReg(FPS15)  returns 0x00000000 (0000ms, 1013ms total)
T23F8 011:323 JLINK_ReadReg(FPS16)  returns 0x00000000 (0000ms, 1013ms total)
T23F8 011:323 JLINK_ReadReg(FPS17)  returns 0x00000000 (0000ms, 1013ms total)
T23F8 011:323 JLINK_ReadReg(FPS18)  returns 0x00000000 (0000ms, 1013ms total)
T23F8 011:323 JLINK_ReadReg(FPS19)  returns 0x00000000 (0000ms, 1013ms total)
T23F8 011:323 JLINK_ReadReg(FPS20)  returns 0x00000000 (0000ms, 1013ms total)
T23F8 011:323 JLINK_ReadReg(FPS21)  returns 0x00000000 (0000ms, 1013ms total)
T23F8 011:323 JLINK_ReadReg(FPS22)  returns 0x00000000 (0000ms, 1013ms total)
T23F8 011:323 JLINK_ReadReg(FPS23)  returns 0x00000000 (0000ms, 1013ms total)
T23F8 011:323 JLINK_ReadReg(FPS24)  returns 0x00000000 (0000ms, 1013ms total)
T23F8 011:323 JLINK_ReadReg(FPS25)  returns 0x00000000 (0000ms, 1013ms total)
T23F8 011:323 JLINK_ReadReg(FPS26)  returns 0x00000000 (0000ms, 1013ms total)
T23F8 011:323 JLINK_ReadReg(FPS27)  returns 0x00000000 (0000ms, 1013ms total)
T23F8 011:323 JLINK_ReadReg(FPS28)  returns 0x00000000 (0000ms, 1013ms total)
T23F8 011:323 JLINK_ReadReg(FPS29)  returns 0x00000000 (0001ms, 1014ms total)
T23F8 011:324 JLINK_ReadReg(FPS30)  returns 0x00000000 (0000ms, 1014ms total)
T23F8 011:324 JLINK_ReadReg(FPS31)  returns 0x00000000 (0000ms, 1014ms total)
T3E88 011:330 JLINK_ReadMemU32(0xE0001004, 0x0001 Items, ...) - Data: 5B 14 DF 00  returns 0x01 (0000ms, 1014ms total)
T3E88 011:340 JLINK_ReadMem (0x0800008E, 0x0002 Bytes, ...) -- Read from C cache (2 bytes @ 0x0800008E) - Data: 01 68  returns 0x00 (0000ms, 1014ms total)
T3E88 011:340 JLINK_ReadMem (0x08000090, 0x003C Bytes, ...) -- Read from C cache (60 bytes @ 0x08000090) - Data: 41 F0 20 01 01 60 0E 48 01 68 41 F4 80 21 01 60 ...  returns 0x00 (0000ms, 1014ms total)
T23F8 011:616 JLINK_Step() -- Read from C cache (2 bytes @ 0x0800008E) -- Not simulated -- CPU_WriteMem(4 bytes @ 0xE0002008) -- CPU_WriteMem(4 bytes @ 0xE000200C) -- CPU_WriteMem(4 bytes @ 0xE0002010) -- CPU_WriteMem(4 bytes @ 0xE0002014) -- CPU_WriteMem(4 bytes @ 0xE0002018) -- CPU_WriteMem(4 bytes @ 0xE000201C) -- CPU_WriteMem(4 bytes @ 0xE0001004)  returns 0x00 (0004ms, 1018ms total)
T23F8 011:620 JLINK_ReadReg(R15 (PC))  returns 0x08000090 (0000ms, 1018ms total)
T23F8 011:620 JLINK_ReadReg(XPSR)  returns 0x01000000 (0000ms, 1018ms total)
T23F8 011:620 JLINK_ReadReg(R0)  returns 0x40023830 (0000ms, 1018ms total)
T23F8 011:620 JLINK_ReadReg(R1)  returns 0x00100000 (0000ms, 1018ms total)
T23F8 011:620 JLINK_ReadReg(R2)  returns 0x00000000 (0000ms, 1018ms total)
T23F8 011:620 JLINK_ReadReg(R3)  returns 0x00000000 (0000ms, 1018ms total)
T23F8 011:620 JLINK_ReadReg(R4)  returns 0x00000000 (0000ms, 1018ms total)
T23F8 011:620 JLINK_ReadReg(R5)  returns 0x00000000 (0000ms, 1018ms total)
T23F8 011:620 JLINK_ReadReg(R6)  returns 0x00000000 (0000ms, 1018ms total)
T23F8 011:620 JLINK_ReadReg(R7)  returns 0x00000000 (0000ms, 1018ms total)
T23F8 011:620 JLINK_ReadReg(R8)  returns 0x00000000 (0000ms, 1018ms total)
T23F8 011:620 JLINK_ReadReg(R9)  returns 0x00000000 (0001ms, 1019ms total)
T23F8 011:621 JLINK_ReadReg(R10)  returns 0x00000000 (0000ms, 1019ms total)
T23F8 011:621 JLINK_ReadReg(R11)  returns 0x00000000 (0000ms, 1019ms total)
T23F8 011:621 JLINK_ReadReg(R12)  returns 0x00000000 (0000ms, 1019ms total)
T23F8 011:621 JLINK_ReadReg(R13 (SP))  returns 0x00000000 (0000ms, 1019ms total)
T23F8 011:621 JLINK_ReadReg(R14)  returns 0xFFFFFFFF (0000ms, 1019ms total)
T23F8 011:621 JLINK_ReadReg(R15 (PC))  returns 0x08000090 (0000ms, 1019ms total)
T23F8 011:621 JLINK_ReadReg(XPSR)  returns 0x01000000 (0000ms, 1019ms total)
T23F8 011:621 JLINK_ReadReg(MSP)  returns 0x00000000 (0000ms, 1019ms total)
T23F8 011:621 JLINK_ReadReg(PSP)  returns 0x00000000 (0000ms, 1019ms total)
T23F8 011:621 JLINK_ReadReg(CFBP)  returns 0x00000000 (0000ms, 1019ms total)
T23F8 011:621 JLINK_ReadReg(FPSCR)  returns 0x00000000 (0002ms, 1021ms total)
T23F8 011:623 JLINK_ReadReg(FPS0)  returns 0x00000000 (0000ms, 1021ms total)
T23F8 011:623 JLINK_ReadReg(FPS1)  returns 0x00000000 (0001ms, 1022ms total)
T23F8 011:624 JLINK_ReadReg(FPS2)  returns 0x00000000 (0000ms, 1022ms total)
T23F8 011:624 JLINK_ReadReg(FPS3)  returns 0x00000000 (0000ms, 1022ms total)
T23F8 011:624 JLINK_ReadReg(FPS4)  returns 0x00000000 (0000ms, 1022ms total)
T23F8 011:624 JLINK_ReadReg(FPS5)  returns 0x00000000 (0000ms, 1022ms total)
T23F8 011:624 JLINK_ReadReg(FPS6)  returns 0x00000000 (0000ms, 1022ms total)
T23F8 011:624 JLINK_ReadReg(FPS7)  returns 0x00000000 (0000ms, 1022ms total)
T23F8 011:624 JLINK_ReadReg(FPS8)  returns 0x00000000 (0000ms, 1022ms total)
T23F8 011:624 JLINK_ReadReg(FPS9)  returns 0x00000000 (0000ms, 1022ms total)
T23F8 011:624 JLINK_ReadReg(FPS10)  returns 0x00000000 (0000ms, 1022ms total)
T23F8 011:624 JLINK_ReadReg(FPS11)  returns 0x00000000 (0000ms, 1022ms total)
T23F8 011:624 JLINK_ReadReg(FPS12)  returns 0x00000000 (0000ms, 1022ms total)
T23F8 011:624 JLINK_ReadReg(FPS13)  returns 0x00000000 (0000ms, 1022ms total)
T23F8 011:624 JLINK_ReadReg(FPS14)  returns 0x00000000 (0000ms, 1022ms total)
T23F8 011:624 JLINK_ReadReg(FPS15)  returns 0x00000000 (0000ms, 1022ms total)
T23F8 011:624 JLINK_ReadReg(FPS16)  returns 0x00000000 (0000ms, 1022ms total)
T23F8 011:624 JLINK_ReadReg(FPS17)  returns 0x00000000 (0000ms, 1022ms total)
T23F8 011:624 JLINK_ReadReg(FPS18)  returns 0x00000000 (0000ms, 1022ms total)
T23F8 011:624 JLINK_ReadReg(FPS19)  returns 0x00000000 (0000ms, 1022ms total)
T23F8 011:624 JLINK_ReadReg(FPS20)  returns 0x00000000 (0000ms, 1022ms total)
T23F8 011:624 JLINK_ReadReg(FPS21)  returns 0x00000000 (0000ms, 1022ms total)
T23F8 011:624 JLINK_ReadReg(FPS22)  returns 0x00000000 (0000ms, 1022ms total)
T23F8 011:624 JLINK_ReadReg(FPS23)  returns 0x00000000 (0000ms, 1022ms total)
T23F8 011:624 JLINK_ReadReg(FPS24)  returns 0x00000000 (0000ms, 1022ms total)
T23F8 011:624 JLINK_ReadReg(FPS25)  returns 0x00000000 (0000ms, 1022ms total)
T23F8 011:624 JLINK_ReadReg(FPS26)  returns 0x00000000 (0000ms, 1022ms total)
T23F8 011:624 JLINK_ReadReg(FPS27)  returns 0x00000000 (0000ms, 1022ms total)
T23F8 011:624 JLINK_ReadReg(FPS28)  returns 0x00000000 (0000ms, 1022ms total)
T23F8 011:624 JLINK_ReadReg(FPS29)  returns 0x00000000 (0000ms, 1022ms total)
T23F8 011:624 JLINK_ReadReg(FPS30)  returns 0x00000000 (0000ms, 1022ms total)
T23F8 011:624 JLINK_ReadReg(FPS31)  returns 0x00000000 (0000ms, 1022ms total)
T3E88 011:624 JLINK_ReadMemU32(0xE0001004, 0x0001 Items, ...) -- CPU_ReadMem(4 bytes @ 0xE0001004) - Data: 05 00 00 00  returns 0x01 (0001ms, 1023ms total)
T3E88 011:636 JLINK_ReadMem (0x08000090, 0x003C Bytes, ...) -- CPU_ReadMem(128 bytes @ 0x08000080) -- Updating C cache (128 bytes @ 0x08000080) -- Read from C cache (60 bytes @ 0x08000090) - Data: 41 F0 20 01 01 60 0E 48 01 68 41 F4 80 21 01 60 ...  returns 0x00 (0001ms, 1024ms total)
T23F8 011:757 JLINK_Step() -- Read from C cache (2 bytes @ 0x08000090) -- Read from C cache (2 bytes @ 0x08000092) -- Simulated  returns 0x00 (0000ms, 1024ms total)
T23F8 011:757 JLINK_ReadReg(R15 (PC))  returns 0x08000094 (0000ms, 1024ms total)
T23F8 011:757 JLINK_ReadReg(XPSR)  returns 0x01000000 (0000ms, 1024ms total)
T23F8 011:757 JLINK_ReadReg(R0)  returns 0x40023830 (0000ms, 1024ms total)
T23F8 011:757 JLINK_ReadReg(R1)  returns 0x00100020 (0000ms, 1024ms total)
T23F8 011:757 JLINK_ReadReg(R2)  returns 0x00000000 (0000ms, 1024ms total)
T23F8 011:757 JLINK_ReadReg(R3)  returns 0x00000000 (0000ms, 1024ms total)
T23F8 011:757 JLINK_ReadReg(R4)  returns 0x00000000 (0000ms, 1024ms total)
T23F8 011:757 JLINK_ReadReg(R5)  returns 0x00000000 (0000ms, 1024ms total)
T23F8 011:757 JLINK_ReadReg(R6)  returns 0x00000000 (0000ms, 1024ms total)
T23F8 011:757 JLINK_ReadReg(R7)  returns 0x00000000 (0000ms, 1024ms total)
T23F8 011:757 JLINK_ReadReg(R8)  returns 0x00000000 (0000ms, 1024ms total)
T23F8 011:757 JLINK_ReadReg(R9)  returns 0x00000000 (0000ms, 1024ms total)
T23F8 011:757 JLINK_ReadReg(R10)  returns 0x00000000 (0000ms, 1024ms total)
T23F8 011:757 JLINK_ReadReg(R11)  returns 0x00000000 (0000ms, 1024ms total)
T23F8 011:757 JLINK_ReadReg(R12)  returns 0x00000000 (0000ms, 1024ms total)
T23F8 011:757 JLINK_ReadReg(R13 (SP))  returns 0x00000000 (0000ms, 1024ms total)
T23F8 011:757 JLINK_ReadReg(R14)  returns 0xFFFFFFFF (0000ms, 1024ms total)
T23F8 011:757 JLINK_ReadReg(R15 (PC))  returns 0x08000094 (0001ms, 1025ms total)
T23F8 011:758 JLINK_ReadReg(XPSR)  returns 0x01000000 (0000ms, 1025ms total)
T23F8 011:758 JLINK_ReadReg(MSP)  returns 0x00000000 (0000ms, 1025ms total)
T23F8 011:758 JLINK_ReadReg(PSP)  returns 0x00000000 (0000ms, 1025ms total)
T23F8 011:758 JLINK_ReadReg(CFBP)  returns 0x00000000 (0000ms, 1025ms total)
T23F8 011:758 JLINK_ReadReg(FPSCR)  returns 0x00000000 (0000ms, 1025ms total)
T23F8 011:758 JLINK_ReadReg(FPS0)  returns 0x00000000 (0000ms, 1025ms total)
T23F8 011:758 JLINK_ReadReg(FPS1)  returns 0x00000000 (0000ms, 1025ms total)
T23F8 011:758 JLINK_ReadReg(FPS2)  returns 0x00000000 (0000ms, 1025ms total)
T23F8 011:758 JLINK_ReadReg(FPS3)  returns 0x00000000 (0000ms, 1025ms total)
T23F8 011:758 JLINK_ReadReg(FPS4)  returns 0x00000000 (0000ms, 1025ms total)
T23F8 011:758 JLINK_ReadReg(FPS5)  returns 0x00000000 (0000ms, 1025ms total)
T23F8 011:758 JLINK_ReadReg(FPS6)  returns 0x00000000 (0000ms, 1025ms total)
T23F8 011:758 JLINK_ReadReg(FPS7)  returns 0x00000000 (0000ms, 1025ms total)
T23F8 011:758 JLINK_ReadReg(FPS8)  returns 0x00000000 (0000ms, 1025ms total)
T23F8 011:758 JLINK_ReadReg(FPS9)  returns 0x00000000 (0000ms, 1025ms total)
T23F8 011:758 JLINK_ReadReg(FPS10)  returns 0x00000000 (0000ms, 1025ms total)
T23F8 011:758 JLINK_ReadReg(FPS11)  returns 0x00000000 (0000ms, 1025ms total)
T23F8 011:758 JLINK_ReadReg(FPS12)  returns 0x00000000 (0000ms, 1025ms total)
T23F8 011:758 JLINK_ReadReg(FPS13)  returns 0x00000000 (0000ms, 1025ms total)
T23F8 011:758 JLINK_ReadReg(FPS14)  returns 0x00000000 (0000ms, 1025ms total)
T23F8 011:758 JLINK_ReadReg(FPS15)  returns 0x00000000 (0000ms, 1025ms total)
T23F8 011:758 JLINK_ReadReg(FPS16)  returns 0x00000000 (0000ms, 1025ms total)
T23F8 011:758 JLINK_ReadReg(FPS17)  returns 0x00000000 (0000ms, 1025ms total)
T23F8 011:758 JLINK_ReadReg(FPS18)  returns 0x00000000 (0000ms, 1025ms total)
T23F8 011:758 JLINK_ReadReg(FPS19)  returns 0x00000000 (0000ms, 1025ms total)
T23F8 011:758 JLINK_ReadReg(FPS20)  returns 0x00000000 (0000ms, 1025ms total)
T23F8 011:758 JLINK_ReadReg(FPS21)  returns 0x00000000 (0000ms, 1025ms total)
T23F8 011:758 JLINK_ReadReg(FPS22)  returns 0x00000000 (0000ms, 1025ms total)
T23F8 011:758 JLINK_ReadReg(FPS23)  returns 0x00000000 (0000ms, 1025ms total)
T23F8 011:759 JLINK_ReadReg(FPS24)  returns 0x00000000 (0000ms, 1025ms total)
T23F8 011:759 JLINK_ReadReg(FPS25)  returns 0x00000000 (0000ms, 1025ms total)
